
T1EF8 000:437 SEGGER J-Link V4.80g Log File (0000ms, 0263ms total)
T1EF8 000:437 DLL Compiled: Feb 13 2014 20:50:02 (0000ms, 0263ms total)
T1EF8 000:437 Logging started @ 2014-07-25 11:49 (0000ms, 0263ms total)
T1EF8 000:437 JLINK_SetWarnOutHandler(...) (0000ms, 0263ms total)
T1EF8 000:437 JLINK_OpenEx(...)
Firmware: J-Link ARM V8 compiled Nov 25 2013 19:20:08
Hardware: V8.00
S/N: 17935099
Feature(s): RDI,FlashDL,FlashBP,JFlash  returns O.K. (0263ms, 0526ms total)
T1EF8 000:700 JLINK_SetErrorOutHandler(...) (0000ms, 0526ms total)
T1EF8 000:700 JLINK_ExecCommand("ProjectFile = "E:\WORK\Contest\BOOTCAMP2014\STM32F4\USER\JLinkSettings.ini"", ...)  returns 0x00 (0001ms, 0527ms total)
T1EF8 000:712 JLINK_ExecCommand("Device = STM32F407VG", ...)Device "STM32F407VG" selected (1024 KB flash, 128 KB RAM).  returns 0x00 (0007ms, 0534ms total)
T1EF8 000:719 JLINK_ExecCommand("DisableConnectionTimeout", ...)  returns 0x01 (0000ms, 0534ms total)
T1EF8 000:719 JLINK_GetHardwareVersion()  returns 0x13880 (0000ms, 0534ms total)
T1EF8 000:719 JLINK_GetDLLVersion()  returns 48007 (0000ms, 0534ms total)
T1EF8 000:719 JLINK_GetFirmwareString(...) (0000ms, 0534ms total)
T1EF8 000:728 JLINK_GetDLLVersion()  returns 48007 (0000ms, 0534ms total)
T1EF8 000:728 JLINK_GetCompileDateTime() (0000ms, 0534ms total)
T1EF8 000:731 JLINK_GetFirmwareString(...) (0000ms, 0534ms total)
T1EF8 000:732 JLINK_GetHardwareVersion()  returns 0x13880 (0001ms, 0535ms total)
T1EF8 000:740 JLINK_TIF_Select(JLINKARM_TIF_SWD)  returns 0x00 (0001ms, 0536ms total)
T1EF8 000:741 JLINK_SetSpeed(2000) (0000ms, 0536ms total)
T1EF8 000:741 JLINK_GetId() >0x108 TIF>Found SWD-DP with ID 0x2BA01477 >0x0D TIF> >0x28 TIF> >0x0D TIF> >0x28 TIF> >0x0D TIF> >0x21 TIF> >0x0D TIF> >0x28 TIF> >0x0D TIF> >0x28 TIF> >0x0D TIF> >0x28 TIF> >0x0D TIF> >0x21 TIF> >0x0D TIF> >0x21 TIF> >0x0D TIF> >0x28 TIF> >0x0D TIF> >0x21 TIF> >0x0D TIF> >0x21 TIF> >0x0D TIF> >0x28 TIF> >0x0D TIF> >0x21 TIF> >0x0D TIF> >0x21 TIF> >0x108 TIF>Found SWD-DP with ID 0x2BA01477 >0x0D TIF> >0x21 TIF> >0x0D TIF> >0x28 TIF> >0x0D TIF> >0x28 TIF> >0x0D TIF> >0x21 TIF>
 >0x0D TIF> >0x28 TIF> >0x0D TIF> >0x21 TIF> >0x0D TIF> >0x21 TIF> >0x0D TIF> >0x21 TIF> >0x0D TIF> >0x21 TIF> >0x0D TIF> >0x28 TIF> >0x0D TIF> >0x28 TIF> >0x0D TIF> >0x21 TIF> >0x0D TIF> >0x28 TIF> >0x0D TIF> >0x28 TIF> >0x0D TIF> >0x28 TIF> >0x0D TIF> >0x21 TIF> >0x0D TIF> >0x21 TIF> >0x0D TIF> >0x28 TIF> >0x0D TIF> >0x21 TIF> >0x0D TIF> >0x21 TIF>Found Cortex-M4 r0p1, Little endian. -- CPU_WriteMem(4 bytes @ 0xE0002000) -- CPU_ReadMem(4 bytes @ 0xE000EDF0) -- CPU_ReadMem(4 bytes @ 0xE0002000)
FPUnit: 6 code (BP) slots and 2 literal slots -- CPU_ReadMem(4 bytes @ 0xE000EDFC) -- CPU_ReadMem(4 bytes @ 0xE0001000) -- CPU_WriteMem(4 bytes @ 0xE0001000) -- CPU_ReadMem(4 bytes @ 0xE00FF010)TPIU fitted. -- CPU_ReadMem(4 bytes @ 0xE00FF014)ETM fitted. -- CPU_ReadMem(4 bytes @ 0xE00FF018) >0x0D TIF> >0x21 TIF>  returns 0x2BA01477 (0050ms, 0586ms total)
T1EF8 000:791 JLINK_GetDeviceFamily()  returns 14 (0000ms, 0586ms total)
T1EF8 000:793 JLINK_ReadMem (0xE00FFFF0, 0x0010 Bytes, ...) -- CPU is running -- CPU_ReadMem(16 bytes @ 0xE00FFFF0) -- Data:  0D 00 00 00 10 00 00 00 05 00 00 00 B1 00 00 00  returns 0x00 (0001ms, 0587ms total)
T1EF8 000:794 JLINK_ReadMem (0xE00FFFD0, 0x0020 Bytes, ...) -- CPU is running -- CPU_ReadMem(32 bytes @ 0xE00FFFD0) -- Data:  00 00 00 00 00 00 00 00 00 00 00 00 00 00 00 00 ...  returns 0x00 (0001ms, 0588ms total)
T1EF8 000:795 JLINK_ReadMem (0xE00FF000, 0x0018 Bytes, ...) -- CPU is running -- CPU_ReadMem(24 bytes @ 0xE00FF000) -- Data:  03 F0 F0 FF 03 20 F0 FF 03 30 F0 FF 03 10 F0 FF ...  returns 0x00 (0001ms, 0589ms total)
T1EF8 000:796 JLINK_ReadMemU32(0xE000ED00, 0x0001 Items, ...) -- CPU is running -- CPU_ReadMem(4 bytes @ 0xE000ED00) -- Data:  41 C2 0F 41  returns 0x01 (0000ms, 0589ms total)
T1EF8 000:796 JLINK_ReadMemU32(0xE000EF40, 0x0001 Items, ...) -- CPU is running -- CPU_ReadMem(4 bytes @ 0xE000EF40) -- Data:  21 00 11 10  returns 0x01 (0001ms, 0590ms total)
T1EF8 000:797 JLINK_ReadMemU32(0xE000EF44, 0x0001 Items, ...) -- CPU is running -- CPU_ReadMem(4 bytes @ 0xE000EF44) -- Data:  11 00 00 11  returns 0x01 (0001ms, 0591ms total)
T1EF8 000:798 JLINK_SetResetType(JLINKARM_RESET_TYPE_NORMAL)  returns JLINKARM_RESET_TYPE_NORMAL (0000ms, 0591ms total)
T1EF8 000:798 JLINK_Reset() -- CPU is running -- CPU_WriteMem(4 bytes @ 0xE000EDF0) -- CPU is running -- CPU_WriteMem(4 bytes @ 0xE000EDFC) >0x35 TIF> -- CPU is running -- CPU_WriteMem(4 bytes @ 0xE000ED0C) -- CPU is running -- CPU_ReadMem(4 bytes @ 0xE000EDF0) -- CPU is running -- CPU_ReadMem(4 bytes @ 0xE000EDF0) -- CPU is running -- CPU_WriteMem(4 bytes @ 0xE000EDF0) -- CPU is running -- CPU_WriteMem(4 bytes @ 0xE000EDFC) -- CPU is running -- CPU_ReadMem(4 bytes @ 0xE000EDF0)
 -- CPU_WriteMem(4 bytes @ 0xE0002000) -- CPU_ReadMem(4 bytes @ 0xE000EDFC) -- CPU_ReadMem(4 bytes @ 0xE0001000) (0021ms, 0612ms total)
T1EF8 000:819 JLINK_Halt()  returns 0x00 (0000ms, 0612ms total)
T1EF8 000:819 JLINK_IsHalted()  returns TRUE (0000ms, 0612ms total)
T1EF8 000:819 JLINK_ReadMemU32(0xE000EDF0, 0x0001 Items, ...) -- CPU_ReadMem(4 bytes @ 0xE000EDF0) -- Data:  03 00 03 00  returns 0x01 (0001ms, 0613ms total)
T1EF8 000:820 JLINK_WriteU32(0xE000EDF0, 0xA05F0003) -- CPU_WriteMem(4 bytes @ 0xE000EDF0)  returns 0x00 (0000ms, 0613ms total)
T1EF8 000:820 JLINK_WriteU32(0xE000EDFC, 0x01000000) -- CPU_WriteMem(4 bytes @ 0xE000EDFC)  returns 0x00 (0001ms, 0614ms total)
T1EF8 000:829 JLINK_GetHWStatus(...)  returns 0x00 (0001ms, 0615ms total)
T1EF8 000:836 JLINK_GetNumBPUnits(Type = 0xFFFFFF00)  returns 0x06 (0000ms, 0615ms total)
T1EF8 000:836 JLINK_GetNumBPUnits(Type = 0xF0)  returns 0x2000 (0000ms, 0615ms total)
T1EF8 000:836 JLINK_GetNumWPUnits()  returns 0x04 (0000ms, 0615ms total)
T1EF8 000:840 JLINK_GetSpeed()  returns 0x7D0 (0000ms, 0615ms total)
T1EF8 000:844 JLINK_ReadMemU32(0xE000E004, 0x0001 Items, ...) -- CPU_ReadMem(4 bytes @ 0xE000E004) -- Data:  02 00 00 00  returns 0x01 (0001ms, 0616ms total)
T1EF8 000:845 JLINK_ReadMemU32(0xE000E004, 0x0001 Items, ...) -- CPU_ReadMem(4 bytes @ 0xE000E004) -- Data:  02 00 00 00  returns 0x01 (0001ms, 0617ms total)
T1EF8 000:846 JLINK_WriteMem(0xE0001000, 0x001C Bytes, ...) -- Data:  01 00 00 00 00 00 00 00 00 00 00 00 00 00 00 00 ... -- CPU_WriteMem(28 bytes @ 0xE0001000)  returns 0x1C (0001ms, 0618ms total)
T1EF8 000:847 JLINK_ReadMem (0xE0001000, 0x001C Bytes, ...) -- CPU_ReadMem(28 bytes @ 0xE0001000) -- Data:  01 00 00 40 00 00 00 00 00 00 00 00 00 00 00 00 ...  returns 0x00 (0001ms, 0619ms total)
T1EF8 000:848 JLINK_Halt()  returns 0x00 (0000ms, 0619ms total)
T1EF8 000:848 JLINK_IsHalted()  returns TRUE (0000ms, 0619ms total)
T1EF8 000:852 JLINK_WriteMem(0x20000000, 0x0180 Bytes, ...) -- Data:  00 BE 0A E0 0D 78 2D 06 68 40 08 24 40 00 00 D3 ... -- CPU_WriteMem(384 bytes @ 0x20000000)  returns 0x180 (0004ms, 0623ms total)
T1EF8 000:856 JLINK_WriteReg(R0, 0x08000000)  returns 0x00 (0001ms, 0624ms total)
T1EF8 000:857 JLINK_WriteReg(R1, 0x0A037A00)  returns 0x00 (0000ms, 0624ms total)
T1EF8 000:857 JLINK_WriteReg(R2, 0x00000001)  returns 0x00 (0000ms, 0624ms total)
T1EF8 000:857 JLINK_WriteReg(R3, 0x00000000)  returns 0x00 (0000ms, 0624ms total)
T1EF8 000:857 JLINK_WriteReg(R4, 0x00000000)  returns 0x00 (0000ms, 0624ms total)
T1EF8 000:857 JLINK_WriteReg(R5, 0x00000000)  returns 0x00 (0000ms, 0624ms total)
T1EF8 000:857 JLINK_WriteReg(R6, 0x00000000)  returns 0x00 (0000ms, 0624ms total)
T1EF8 000:857 JLINK_WriteReg(R7, 0x00000000)  returns 0x00 (0000ms, 0624ms total)
T1EF8 000:857 JLINK_WriteReg(R8, 0x00000000)  returns 0x00 (0000ms, 0624ms total)
T1EF8 000:857 JLINK_WriteReg(R9, 0x2000017C)  returns 0x00 (0000ms, 0624ms total)
T1EF8 000:857 JLINK_WriteReg(R10, 0x00000000)  returns 0x00 (0000ms, 0624ms total)
T1EF8 000:857 JLINK_WriteReg(R11, 0x00000000)  returns 0x00 (0000ms, 0624ms total)
T1EF8 000:857 JLINK_WriteReg(R12, 0x00000000)  returns 0x00 (0000ms, 0624ms total)
T1EF8 000:857 JLINK_WriteReg(R13 (SP), 0x20000800)  returns 0x00 (0000ms, 0624ms total)
T1EF8 000:857 JLINK_WriteReg(R14, 0x20000001)  returns 0x00 (0000ms, 0624ms total)
T1EF8 000:857 JLINK_WriteReg(R15 (PC), 0x20000054)  returns 0x00 (0000ms, 0624ms total)
T1EF8 000:857 JLINK_WriteReg(XPSR, 0x01000000)  returns 0x00 (0000ms, 0624ms total)
T1EF8 000:857 JLINK_WriteReg(MSP, 0x20000800)  returns 0x00 (0000ms, 0624ms total)
T1EF8 000:857 JLINK_WriteReg(PSP, 0x20000800)  returns 0x00 (0000ms, 0624ms total)
T1EF8 000:857 JLINK_WriteReg(CFBP, 0x00000000)  returns 0x00 (0000ms, 0624ms total)
T1EF8 000:857 JLINK_SetBPEx(Addr = 0x20000000, Type = 0xFFFFFFF2) -- CPU_ReadMem(2 bytes @ 0x20000000)  returns 0x00000001 (0001ms, 0625ms total)
T1EF8 000:858 JLINK_Go() -- CPU_WriteMem(2 bytes @ 0x20000000) -- CPU_WriteMem(4 bytes @ 0xE0002008) -- CPU_WriteMem(4 bytes @ 0xE000200C) -- CPU_WriteMem(4 bytes @ 0xE0002010) -- CPU_WriteMem(4 bytes @ 0xE0002014) -- CPU_WriteMem(4 bytes @ 0xE0002018) -- CPU_WriteMem(4 bytes @ 0xE000201C) -- CPU_WriteMem(4 bytes @ 0xE0001004) (0007ms, 0632ms total)
T1EF8 000:865 JLINK_IsHalted() -- CPU_ReadMem(2 bytes @ 0x20000000)  returns TRUE (0005ms, 0637ms total)
T1EF8 000:870 JLINK_ReadReg(R15 (PC))  returns 0x20000000 (0000ms, 0632ms total)
T1EF8 000:870 JLINK_ClrBPEx(BPHandle = 0x00000001)  returns 0x00 (0000ms, 0632ms total)
T1EF8 000:870 JLINK_ReadReg(R0)  returns 0x00000000 (0000ms, 0632ms total)
T1EF8 000:870 JLINK_WriteReg(R0, 0x08000000)  returns 0x00 (0000ms, 0632ms total)
T1EF8 000:870 JLINK_WriteReg(R1, 0x00004000)  returns 0x00 (0000ms, 0632ms total)
T1EF8 000:870 JLINK_WriteReg(R2, 0x000000FF)  returns 0x00 (0000ms, 0632ms total)
T1EF8 000:870 JLINK_WriteReg(R3, 0x00000000)  returns 0x00 (0000ms, 0632ms total)
T1EF8 000:870 JLINK_WriteReg(R4, 0x00000000)  returns 0x00 (0000ms, 0632ms total)
T1EF8 000:870 JLINK_WriteReg(R5, 0x00000000)  returns 0x00 (0000ms, 0632ms total)
T1EF8 000:870 JLINK_WriteReg(R6, 0x00000000)  returns 0x00 (0000ms, 0632ms total)
T1EF8 000:870 JLINK_WriteReg(R7, 0x00000000)  returns 0x00 (0000ms, 0632ms total)
T1EF8 000:870 JLINK_WriteReg(R8, 0x00000000)  returns 0x00 (0000ms, 0632ms total)
T1EF8 000:870 JLINK_WriteReg(R9, 0x2000017C)  returns 0x00 (0000ms, 0632ms total)
T1EF8 000:870 JLINK_WriteReg(R10, 0x00000000)  returns 0x00 (0000ms, 0632ms total)
T1EF8 000:870 JLINK_WriteReg(R11, 0x00000000)  returns 0x00 (0000ms, 0632ms total)
T1EF8 000:870 JLINK_WriteReg(R12, 0x00000000)  returns 0x00 (0000ms, 0632ms total)
T1EF8 000:870 JLINK_WriteReg(R13 (SP), 0x20000800)  returns 0x00 (0000ms, 0632ms total)
T1EF8 000:870 JLINK_WriteReg(R14, 0x20000001)  returns 0x00 (0000ms, 0632ms total)
T1EF8 000:870 JLINK_WriteReg(R15 (PC), 0x20000020)  returns 0x00 (0000ms, 0632ms total)
T1EF8 000:870 JLINK_WriteReg(XPSR, 0x01000000)  returns 0x00 (0001ms, 0633ms total)
T1EF8 000:871 JLINK_WriteReg(MSP, 0x20000800)  returns 0x00 (0000ms, 0633ms total)
T1EF8 000:871 JLINK_WriteReg(PSP, 0x20000800)  returns 0x00 (0000ms, 0633ms total)
T1EF8 000:871 JLINK_WriteReg(CFBP, 0x00000000)  returns 0x00 (0000ms, 0633ms total)
T1EF8 000:871 JLINK_SetBPEx(Addr = 0x20000000, Type = 0xFFFFFFF2)  returns 0x00000002 (0000ms, 0633ms total)
T1EF8 000:871 JLINK_Go() (0002ms, 0635ms total)
T1EF8 000:873 JLINK_IsHalted() -- CPU_ReadMem(2 bytes @ 0x20000000)  returns TRUE (0004ms, 0639ms total)
T1EF8 000:877 JLINK_ReadReg(R15 (PC))  returns 0x20000000 (0000ms, 0635ms total)
T1EF8 000:877 JLINK_ClrBPEx(BPHandle = 0x00000002)  returns 0x00 (0000ms, 0635ms total)
T1EF8 000:877 JLINK_ReadReg(R0)  returns 0x00000001 (0000ms, 0635ms total)
T1EF8 000:877 JLINK_WriteReg(R0, 0x08000000)  returns 0x00 (0000ms, 0635ms total)
T1EF8 000:877 JLINK_WriteReg(R1, 0x00004000)  returns 0x00 (0000ms, 0635ms total)
T1EF8 000:877 JLINK_WriteReg(R2, 0x000000FF)  returns 0x00 (0000ms, 0635ms total)
T1EF8 000:877 JLINK_WriteReg(R3, 0x00000000)  returns 0x00 (0000ms, 0635ms total)
T1EF8 000:877 JLINK_WriteReg(R4, 0x00000000)  returns 0x00 (0000ms, 0635ms total)
T1EF8 000:877 JLINK_WriteReg(R5, 0x00000000)  returns 0x00 (0001ms, 0636ms total)
T1EF8 000:878 JLINK_WriteReg(R6, 0x00000000)  returns 0x00 (0000ms, 0636ms total)
T1EF8 000:878 JLINK_WriteReg(R7, 0x00000000)  returns 0x00 (0000ms, 0636ms total)
T1EF8 000:878 JLINK_WriteReg(R8, 0x00000000)  returns 0x00 (0000ms, 0636ms total)
T1EF8 000:878 JLINK_WriteReg(R9, 0x2000017C)  returns 0x00 (0000ms, 0636ms total)
T1EF8 000:878 JLINK_WriteReg(R10, 0x00000000)  returns 0x00 (0000ms, 0636ms total)
T1EF8 000:878 JLINK_WriteReg(R11, 0x00000000)  returns 0x00 (0000ms, 0636ms total)
T1EF8 000:878 JLINK_WriteReg(R12, 0x00000000)  returns 0x00 (0000ms, 0636ms total)
T1EF8 000:878 JLINK_WriteReg(R13 (SP), 0x20000800)  returns 0x00 (0000ms, 0636ms total)
T1EF8 000:878 JLINK_WriteReg(R14, 0x20000001)  returns 0x00 (0000ms, 0636ms total)
T1EF8 000:878 JLINK_WriteReg(R15 (PC), 0x200000BC)  returns 0x00 (0000ms, 0636ms total)
T1EF8 000:878 JLINK_WriteReg(XPSR, 0x01000000)  returns 0x00 (0000ms, 0636ms total)
T1EF8 000:878 JLINK_WriteReg(MSP, 0x20000800)  returns 0x00 (0000ms, 0636ms total)
T1EF8 000:878 JLINK_WriteReg(PSP, 0x20000800)  returns 0x00 (0000ms, 0636ms total)
T1EF8 000:878 JLINK_WriteReg(CFBP, 0x00000000)  returns 0x00 (0000ms, 0636ms total)
T1EF8 000:878 JLINK_SetBPEx(Addr = 0x20000000, Type = 0xFFFFFFF2)  returns 0x00000003 (0000ms, 0636ms total)
T1EF8 000:878 JLINK_Go() (0002ms, 0638ms total)
T1EF8 000:880 JLINK_IsHalted()  returns FALSE (0001ms, 0639ms total)
T1EF8 001:131 JLINK_IsHalted()  returns FALSE (0002ms, 0640ms total)
T1EF8 001:352 JLINK_IsHalted() -- CPU_ReadMem(2 bytes @ 0x20000000)  returns TRUE (0004ms, 0642ms total)
T1EF8 001:356 JLINK_ReadReg(R15 (PC))  returns 0x20000000 (0000ms, 0638ms total)
T1EF8 001:356 JLINK_ClrBPEx(BPHandle = 0x00000003)  returns 0x00 (0000ms, 0638ms total)
T1EF8 001:356 JLINK_ReadReg(R0)  returns 0x00000000 (0000ms, 0638ms total)
T1EF8 001:357 JLINK_WriteReg(R0, 0x08004000)  returns 0x00 (0000ms, 0638ms total)
T1EF8 001:357 JLINK_WriteReg(R1, 0x00004000)  returns 0x00 (0000ms, 0638ms total)
T1EF8 001:357 JLINK_WriteReg(R2, 0x000000FF)  returns 0x00 (0000ms, 0638ms total)
T1EF8 001:357 JLINK_WriteReg(R3, 0x00000000)  returns 0x00 (0000ms, 0638ms total)
T1EF8 001:357 JLINK_WriteReg(R4, 0x00000000)  returns 0x00 (0000ms, 0638ms total)
T1EF8 001:357 JLINK_WriteReg(R5, 0x00000000)  returns 0x00 (0000ms, 0638ms total)
T1EF8 001:357 JLINK_WriteReg(R6, 0x00000000)  returns 0x00 (0000ms, 0638ms total)
T1EF8 001:357 JLINK_WriteReg(R7, 0x00000000)  returns 0x00 (0000ms, 0638ms total)
T1EF8 001:357 JLINK_WriteReg(R8, 0x00000000)  returns 0x00 (0000ms, 0638ms total)
T1EF8 001:357 JLINK_WriteReg(R9, 0x2000017C)  returns 0x00 (0000ms, 0638ms total)
T1EF8 001:357 JLINK_WriteReg(R10, 0x00000000)  returns 0x00 (0000ms, 0638ms total)
T1EF8 001:357 JLINK_WriteReg(R11, 0x00000000)  returns 0x00 (0000ms, 0638ms total)
T1EF8 001:357 JLINK_WriteReg(R12, 0x00000000)  returns 0x00 (0000ms, 0638ms total)
T1EF8 001:357 JLINK_WriteReg(R13 (SP), 0x20000800)  returns 0x00 (0000ms, 0638ms total)
T1EF8 001:357 JLINK_WriteReg(R14, 0x20000001)  returns 0x00 (0000ms, 0638ms total)
T1EF8 001:357 JLINK_WriteReg(R15 (PC), 0x20000020)  returns 0x00 (0000ms, 0638ms total)
T1EF8 001:357 JLINK_WriteReg(XPSR, 0x01000000)  returns 0x00 (0000ms, 0638ms total)
T1EF8 001:357 JLINK_WriteReg(MSP, 0x20000800)  returns 0x00 (0000ms, 0638ms total)
T1EF8 001:357 JLINK_WriteReg(PSP, 0x20000800)  returns 0x00 (0000ms, 0638ms total)
T1EF8 001:357 JLINK_WriteReg(CFBP, 0x00000000)  returns 0x00 (0000ms, 0638ms total)
T1EF8 001:357 JLINK_SetBPEx(Addr = 0x20000000, Type = 0xFFFFFFF2)  returns 0x00000004 (0000ms, 0638ms total)
T1EF8 001:357 JLINK_Go() (0002ms, 0640ms total)
T1EF8 001:359 JLINK_IsHalted() -- CPU_ReadMem(2 bytes @ 0x20000000)  returns TRUE (0005ms, 0645ms total)
T1EF8 001:364 JLINK_ReadReg(R15 (PC))  returns 0x20000000 (0000ms, 0640ms total)
T1EF8 001:364 JLINK_ClrBPEx(BPHandle = 0x00000004)  returns 0x00 (0000ms, 0640ms total)
T1EF8 001:364 JLINK_ReadReg(R0)  returns 0x00000001 (0000ms, 0640ms total)
T1EF8 001:364 JLINK_WriteReg(R0, 0x08004000)  returns 0x00 (0000ms, 0640ms total)
T1EF8 001:364 JLINK_WriteReg(R1, 0x00004000)  returns 0x00 (0000ms, 0640ms total)
T1EF8 001:364 JLINK_WriteReg(R2, 0x000000FF)  returns 0x00 (0000ms, 0640ms total)
T1EF8 001:364 JLINK_WriteReg(R3, 0x00000000)  returns 0x00 (0000ms, 0640ms total)
T1EF8 001:364 JLINK_WriteReg(R4, 0x00000000)  returns 0x00 (0000ms, 0640ms total)
T1EF8 001:364 JLINK_WriteReg(R5, 0x00000000)  returns 0x00 (0000ms, 0640ms total)
T1EF8 001:364 JLINK_WriteReg(R6, 0x00000000)  returns 0x00 (0000ms, 0640ms total)
T1EF8 001:364 JLINK_WriteReg(R7, 0x00000000)  returns 0x00 (0000ms, 0640ms total)
T1EF8 001:364 JLINK_WriteReg(R8, 0x00000000)  returns 0x00 (0000ms, 0640ms total)
T1EF8 001:364 JLINK_WriteReg(R9, 0x2000017C)  returns 0x00 (0000ms, 0640ms total)
T1EF8 001:364 JLINK_WriteReg(R10, 0x00000000)  returns 0x00 (0000ms, 0640ms total)
T1EF8 001:364 JLINK_WriteReg(R11, 0x00000000)  returns 0x00 (0000ms, 0640ms total)
T1EF8 001:364 JLINK_WriteReg(R12, 0x00000000)  returns 0x00 (0000ms, 0640ms total)
T1EF8 001:364 JLINK_WriteReg(R13 (SP), 0x20000800)  returns 0x00 (0000ms, 0640ms total)
T1EF8 001:364 JLINK_WriteReg(R14, 0x20000001)  returns 0x00 (0000ms, 0640ms total)
T1EF8 001:364 JLINK_WriteReg(R15 (PC), 0x200000BC)  returns 0x00 (0000ms, 0640ms total)
T1EF8 001:364 JLINK_WriteReg(XPSR, 0x01000000)  returns 0x00 (0000ms, 0640ms total)
T1EF8 001:365 JLINK_WriteReg(MSP, 0x20000800)  returns 0x00 (0000ms, 0640ms total)
T1EF8 001:365 JLINK_WriteReg(PSP, 0x20000800)  returns 0x00 (0000ms, 0640ms total)
T1EF8 001:365 JLINK_WriteReg(CFBP, 0x00000000)  returns 0x00 (0000ms, 0640ms total)
T1EF8 001:365 JLINK_SetBPEx(Addr = 0x20000000, Type = 0xFFFFFFF2)  returns 0x00000005 (0000ms, 0640ms total)
T1EF8 001:365 JLINK_Go() (0001ms, 0641ms total)
T1EF8 001:366 JLINK_IsHalted()  returns FALSE (0001ms, 0642ms total)
T1EF8 001:593 JLINK_IsHalted()  returns FALSE (0000ms, 0641ms total)
T1EF8 001:836 JLINK_IsHalted() -- CPU_ReadMem(2 bytes @ 0x20000000)  returns TRUE (0004ms, 0645ms total)
T1EF8 001:840 JLINK_ReadReg(R15 (PC))  returns 0x20000000 (0000ms, 0641ms total)
T1EF8 001:840 JLINK_ClrBPEx(BPHandle = 0x00000005)  returns 0x00 (0000ms, 0641ms total)
T1EF8 001:840 JLINK_ReadReg(R0)  returns 0x00000000 (0000ms, 0641ms total)
T1EF8 001:841 JLINK_WriteReg(R0, 0x08008000)  returns 0x00 (0000ms, 0641ms total)
T1EF8 001:841 JLINK_WriteReg(R1, 0x00004000)  returns 0x00 (0000ms, 0641ms total)
T1EF8 001:841 JLINK_WriteReg(R2, 0x000000FF)  returns 0x00 (0000ms, 0641ms total)
T1EF8 001:841 JLINK_WriteReg(R3, 0x00000000)  returns 0x00 (0000ms, 0641ms total)
T1EF8 001:841 JLINK_WriteReg(R4, 0x00000000)  returns 0x00 (0000ms, 0641ms total)
T1EF8 001:841 JLINK_WriteReg(R5, 0x00000000)  returns 0x00 (0000ms, 0641ms total)
T1EF8 001:841 JLINK_WriteReg(R6, 0x00000000)  returns 0x00 (0000ms, 0641ms total)
T1EF8 001:841 JLINK_WriteReg(R7, 0x00000000)  returns 0x00 (0000ms, 0641ms total)
T1EF8 001:841 JLINK_WriteReg(R8, 0x00000000)  returns 0x00 (0000ms, 0641ms total)
T1EF8 001:841 JLINK_WriteReg(R9, 0x2000017C)  returns 0x00 (0000ms, 0641ms total)
T1EF8 001:841 JLINK_WriteReg(R10, 0x00000000)  returns 0x00 (0000ms, 0641ms total)
T1EF8 001:841 JLINK_WriteReg(R11, 0x00000000)  returns 0x00 (0000ms, 0641ms total)
T1EF8 001:841 JLINK_WriteReg(R12, 0x00000000)  returns 0x00 (0000ms, 0641ms total)
T1EF8 001:841 JLINK_WriteReg(R13 (SP), 0x20000800)  returns 0x00 (0000ms, 0641ms total)
T1EF8 001:841 JLINK_WriteReg(R14, 0x20000001)  returns 0x00 (0000ms, 0641ms total)
T1EF8 001:841 JLINK_WriteReg(R15 (PC), 0x20000020)  returns 0x00 (0000ms, 0641ms total)
T1EF8 001:841 JLINK_WriteReg(XPSR, 0x01000000)  returns 0x00 (0000ms, 0641ms total)
T1EF8 001:841 JLINK_WriteReg(MSP, 0x20000800)  returns 0x00 (0000ms, 0641ms total)
T1EF8 001:842 JLINK_WriteReg(PSP, 0x20000800)  returns 0x00 (0000ms, 0641ms total)
T1EF8 001:842 JLINK_WriteReg(CFBP, 0x00000000)  returns 0x00 (0000ms, 0641ms total)
T1EF8 001:842 JLINK_SetBPEx(Addr = 0x20000000, Type = 0xFFFFFFF2)  returns 0x00000006 (0000ms, 0641ms total)
T1EF8 001:842 JLINK_Go() (0002ms, 0643ms total)
T1EF8 001:844 JLINK_IsHalted() -- CPU_ReadMem(2 bytes @ 0x20000000)  returns TRUE (0005ms, 0648ms total)
T1EF8 001:849 JLINK_ReadReg(R15 (PC))  returns 0x20000000 (0000ms, 0643ms total)
T1EF8 001:849 JLINK_ClrBPEx(BPHandle = 0x00000006)  returns 0x00 (0000ms, 0643ms total)
T1EF8 001:849 JLINK_ReadReg(R0)  returns 0x00000001 (0000ms, 0643ms total)
T1EF8 001:849 JLINK_WriteReg(R0, 0x08008000)  returns 0x00 (0000ms, 0643ms total)
T1EF8 001:849 JLINK_WriteReg(R1, 0x00004000)  returns 0x00 (0000ms, 0643ms total)
T1EF8 001:849 JLINK_WriteReg(R2, 0x000000FF)  returns 0x00 (0000ms, 0643ms total)
T1EF8 001:849 JLINK_WriteReg(R3, 0x00000000)  returns 0x00 (0000ms, 0643ms total)
T1EF8 001:849 JLINK_WriteReg(R4, 0x00000000)  returns 0x00 (0000ms, 0643ms total)
T1EF8 001:849 JLINK_WriteReg(R5, 0x00000000)  returns 0x00 (0000ms, 0643ms total)
T1EF8 001:849 JLINK_WriteReg(R6, 0x00000000)  returns 0x00 (0000ms, 0643ms total)
T1EF8 001:849 JLINK_WriteReg(R7, 0x00000000)  returns 0x00 (0000ms, 0643ms total)
T1EF8 001:849 JLINK_WriteReg(R8, 0x00000000)  returns 0x00 (0000ms, 0643ms total)
T1EF8 001:849 JLINK_WriteReg(R9, 0x2000017C)  returns 0x00 (0000ms, 0643ms total)
T1EF8 001:849 JLINK_WriteReg(R10, 0x00000000)  returns 0x00 (0000ms, 0643ms total)
T1EF8 001:849 JLINK_WriteReg(R11, 0x00000000)  returns 0x00 (0000ms, 0643ms total)
T1EF8 001:849 JLINK_WriteReg(R12, 0x00000000)  returns 0x00 (0000ms, 0643ms total)
T1EF8 001:849 JLINK_WriteReg(R13 (SP), 0x20000800)  returns 0x00 (0000ms, 0643ms total)
T1EF8 001:849 JLINK_WriteReg(R14, 0x20000001)  returns 0x00 (0000ms, 0643ms total)
T1EF8 001:849 JLINK_WriteReg(R15 (PC), 0x200000BC)  returns 0x00 (0000ms, 0643ms total)
T1EF8 001:849 JLINK_WriteReg(XPSR, 0x01000000)  returns 0x00 (0000ms, 0643ms total)
T1EF8 001:849 JLINK_WriteReg(MSP, 0x20000800)  returns 0x00 (0000ms, 0643ms total)
T1EF8 001:849 JLINK_WriteReg(PSP, 0x20000800)  returns 0x00 (0000ms, 0643ms total)
T1EF8 001:849 JLINK_WriteReg(CFBP, 0x00000000)  returns 0x00 (0000ms, 0643ms total)
T1EF8 001:849 JLINK_SetBPEx(Addr = 0x20000000, Type = 0xFFFFFFF2)  returns 0x00000007 (0000ms, 0643ms total)
T1EF8 001:849 JLINK_Go() (0002ms, 0645ms total)
T1EF8 001:851 JLINK_IsHalted()  returns FALSE (0000ms, 0645ms total)
T1EF8 002:064 JLINK_IsHalted()  returns FALSE (0000ms, 0645ms total)
T1EF8 002:292 JLINK_IsHalted() -- CPU_ReadMem(2 bytes @ 0x20000000)  returns TRUE (0005ms, 0650ms total)
T1EF8 002:297 JLINK_ReadReg(R15 (PC))  returns 0x20000000 (0000ms, 0645ms total)
T1EF8 002:297 JLINK_ClrBPEx(BPHandle = 0x00000007)  returns 0x00 (0000ms, 0645ms total)
T1EF8 002:297 JLINK_ReadReg(R0)  returns 0x00000000 (0000ms, 0645ms total)
T1EF8 002:297 JLINK_WriteReg(R0, 0x0800C000)  returns 0x00 (0001ms, 0646ms total)
T1EF8 002:298 JLINK_WriteReg(R1, 0x00004000)  returns 0x00 (0000ms, 0646ms total)
T1EF8 002:298 JLINK_WriteReg(R2, 0x000000FF)  returns 0x00 (0000ms, 0646ms total)
T1EF8 002:298 JLINK_WriteReg(R3, 0x00000000)  returns 0x00 (0000ms, 0646ms total)
T1EF8 002:298 JLINK_WriteReg(R4, 0x00000000)  returns 0x00 (0000ms, 0646ms total)
T1EF8 002:298 JLINK_WriteReg(R5, 0x00000000)  returns 0x00 (0000ms, 0646ms total)
T1EF8 002:298 JLINK_WriteReg(R6, 0x00000000)  returns 0x00 (0000ms, 0646ms total)
T1EF8 002:298 JLINK_WriteReg(R7, 0x00000000)  returns 0x00 (0000ms, 0646ms total)
T1EF8 002:298 JLINK_WriteReg(R8, 0x00000000)  returns 0x00 (0000ms, 0646ms total)
T1EF8 002:298 JLINK_WriteReg(R9, 0x2000017C)  returns 0x00 (0000ms, 0646ms total)
T1EF8 002:298 JLINK_WriteReg(R10, 0x00000000)  returns 0x00 (0000ms, 0646ms total)
T1EF8 002:298 JLINK_WriteReg(R11, 0x00000000)  returns 0x00 (0000ms, 0646ms total)
T1EF8 002:298 JLINK_WriteReg(R12, 0x00000000)  returns 0x00 (0000ms, 0646ms total)
T1EF8 002:298 JLINK_WriteReg(R13 (SP), 0x20000800)  returns 0x00 (0000ms, 0646ms total)
T1EF8 002:298 JLINK_WriteReg(R14, 0x20000001)  returns 0x00 (0000ms, 0646ms total)
T1EF8 002:298 JLINK_WriteReg(R15 (PC), 0x20000020)  returns 0x00 (0000ms, 0646ms total)
T1EF8 002:298 JLINK_WriteReg(XPSR, 0x01000000)  returns 0x00 (0000ms, 0646ms total)
T1EF8 002:298 JLINK_WriteReg(MSP, 0x20000800)  returns 0x00 (0000ms, 0646ms total)
T1EF8 002:298 JLINK_WriteReg(PSP, 0x20000800)  returns 0x00 (0000ms, 0646ms total)
T1EF8 002:298 JLINK_WriteReg(CFBP, 0x00000000)  returns 0x00 (0000ms, 0646ms total)
T1EF8 002:298 JLINK_SetBPEx(Addr = 0x20000000, Type = 0xFFFFFFF2)  returns 0x00000008 (0000ms, 0646ms total)
T1EF8 002:298 JLINK_Go() (0003ms, 0649ms total)
T1EF8 002:301 JLINK_IsHalted()  returns FALSE (0000ms, 0649ms total)
T1EF8 002:506 JLINK_IsHalted() -- CPU_ReadMem(2 bytes @ 0x20000000)  returns TRUE (0004ms, 0653ms total)
T1EF8 002:510 JLINK_ReadReg(R15 (PC))  returns 0x20000000 (0000ms, 0649ms total)
T1EF8 002:510 JLINK_ClrBPEx(BPHandle = 0x00000008)  returns 0x00 (0000ms, 0649ms total)
T1EF8 002:510 JLINK_ReadReg(R0)  returns 0x00000000 (0000ms, 0649ms total)
T1EF8 002:511 JLINK_WriteReg(R0, 0x00000001)  returns 0x00 (0000ms, 0649ms total)
T1EF8 002:511 JLINK_WriteReg(R1, 0x00004000)  returns 0x00 (0000ms, 0649ms total)
T1EF8 002:511 JLINK_WriteReg(R2, 0x000000FF)  returns 0x00 (0000ms, 0649ms total)
T1EF8 002:511 JLINK_WriteReg(R3, 0x00000000)  returns 0x00 (0000ms, 0649ms total)
T1EF8 002:511 JLINK_WriteReg(R4, 0x00000000)  returns 0x00 (0000ms, 0649ms total)
T1EF8 002:511 JLINK_WriteReg(R5, 0x00000000)  returns 0x00 (0000ms, 0649ms total)
T1EF8 002:511 JLINK_WriteReg(R6, 0x00000000)  returns 0x00 (0000ms, 0649ms total)
T1EF8 002:511 JLINK_WriteReg(R7, 0x00000000)  returns 0x00 (0000ms, 0649ms total)
T1EF8 002:511 JLINK_WriteReg(R8, 0x00000000)  returns 0x00 (0000ms, 0649ms total)
T1EF8 002:511 JLINK_WriteReg(R9, 0x2000017C)  returns 0x00 (0000ms, 0649ms total)
T1EF8 002:511 JLINK_WriteReg(R10, 0x00000000)  returns 0x00 (0000ms, 0649ms total)
T1EF8 002:511 JLINK_WriteReg(R11, 0x00000000)  returns 0x00 (0000ms, 0649ms total)
T1EF8 002:511 JLINK_WriteReg(R12, 0x00000000)  returns 0x00 (0000ms, 0649ms total)
T1EF8 002:511 JLINK_WriteReg(R13 (SP), 0x20000800)  returns 0x00 (0000ms, 0649ms total)
T1EF8 002:511 JLINK_WriteReg(R14, 0x20000001)  returns 0x00 (0000ms, 0649ms total)
T1EF8 002:511 JLINK_WriteReg(R15 (PC), 0x20000082)  returns 0x00 (0000ms, 0649ms total)
T1EF8 002:511 JLINK_WriteReg(XPSR, 0x01000000)  returns 0x00 (0000ms, 0649ms total)
T1EF8 002:511 JLINK_WriteReg(MSP, 0x20000800)  returns 0x00 (0000ms, 0649ms total)
T1EF8 002:511 JLINK_WriteReg(PSP, 0x20000800)  returns 0x00 (0000ms, 0649ms total)
T1EF8 002:512 JLINK_WriteReg(CFBP, 0x00000000)  returns 0x00 (0000ms, 0649ms total)
T1EF8 002:512 JLINK_SetBPEx(Addr = 0x20000000, Type = 0xFFFFFFF2)  returns 0x00000009 (0000ms, 0649ms total)
T1EF8 002:512 JLINK_Go() (0002ms, 0651ms total)
T1EF8 002:514 JLINK_IsHalted() -- CPU_ReadMem(2 bytes @ 0x20000000)  returns TRUE (0004ms, 0655ms total)
T1EF8 002:518 JLINK_ReadReg(R15 (PC))  returns 0x20000000 (0000ms, 0651ms total)
T1EF8 002:518 JLINK_ClrBPEx(BPHandle = 0x00000009)  returns 0x00 (0000ms, 0651ms total)
T1EF8 002:518 JLINK_ReadReg(R0)  returns 0x00000000 (0000ms, 0651ms total)
T1EF8 002:578 JLINK_WriteMem(0x20000000, 0x0180 Bytes, ...) -- Data:  00 BE 0A E0 0D 78 2D 06 68 40 08 24 40 00 00 D3 ... -- CPU_WriteMem(384 bytes @ 0x20000000)  returns 0x180 (0005ms, 0656ms total)
T1EF8 002:583 JLINK_WriteReg(R0, 0x08000000)  returns 0x00 (0000ms, 0656ms total)
T1EF8 002:583 JLINK_WriteReg(R1, 0x0A037A00)  returns 0x00 (0000ms, 0656ms total)
T1EF8 002:583 JLINK_WriteReg(R2, 0x00000002)  returns 0x00 (0000ms, 0656ms total)
T1EF8 002:583 JLINK_WriteReg(R3, 0x00000000)  returns 0x00 (0000ms, 0656ms total)
T1EF8 002:583 JLINK_WriteReg(R4, 0x00000000)  returns 0x00 (0000ms, 0656ms total)
T1EF8 002:583 JLINK_WriteReg(R5, 0x00000000)  returns 0x00 (0000ms, 0656ms total)
T1EF8 002:583 JLINK_WriteReg(R6, 0x00000000)  returns 0x00 (0000ms, 0656ms total)
T1EF8 002:583 JLINK_WriteReg(R7, 0x00000000)  returns 0x00 (0000ms, 0656ms total)
T1EF8 002:583 JLINK_WriteReg(R8, 0x00000000)  returns 0x00 (0000ms, 0656ms total)
T1EF8 002:583 JLINK_WriteReg(R9, 0x2000017C)  returns 0x00 (0000ms, 0656ms total)
T1EF8 002:583 JLINK_WriteReg(R10, 0x00000000)  returns 0x00 (0000ms, 0656ms total)
T1EF8 002:583 JLINK_WriteReg(R11, 0x00000000)  returns 0x00 (0000ms, 0656ms total)
T1EF8 002:583 JLINK_WriteReg(R12, 0x00000000)  returns 0x00 (0000ms, 0656ms total)
T1EF8 002:583 JLINK_WriteReg(R13 (SP), 0x20000800)  returns 0x00 (0000ms, 0656ms total)
T1EF8 002:583 JLINK_WriteReg(R14, 0x20000001)  returns 0x00 (0000ms, 0656ms total)
T1EF8 002:583 JLINK_WriteReg(R15 (PC), 0x20000054)  returns 0x00 (0000ms, 0656ms total)
T1EF8 002:583 JLINK_WriteReg(XPSR, 0x01000000)  returns 0x00 (0001ms, 0657ms total)
T1EF8 002:584 JLINK_WriteReg(MSP, 0x20000800)  returns 0x00 (0000ms, 0657ms total)
T1EF8 002:584 JLINK_WriteReg(PSP, 0x20000800)  returns 0x00 (0000ms, 0657ms total)
T1EF8 002:584 JLINK_WriteReg(CFBP, 0x00000000)  returns 0x00 (0000ms, 0657ms total)
T1EF8 002:584 JLINK_SetBPEx(Addr = 0x20000000, Type = 0xFFFFFFF2) -- CPU_ReadMem(2 bytes @ 0x20000000)  returns 0x0000000A (0000ms, 0657ms total)
T1EF8 002:584 JLINK_Go() -- CPU_WriteMem(2 bytes @ 0x20000000) (0003ms, 0660ms total)
T1EF8 002:587 JLINK_IsHalted() -- CPU_ReadMem(2 bytes @ 0x20000000)  returns TRUE (0005ms, 0665ms total)
T1EF8 002:592 JLINK_ReadReg(R15 (PC))  returns 0x20000000 (0000ms, 0660ms total)
T1EF8 002:592 JLINK_ClrBPEx(BPHandle = 0x0000000A)  returns 0x00 (0000ms, 0660ms total)
T1EF8 002:592 JLINK_ReadReg(R0)  returns 0x00000000 (0000ms, 0660ms total)
T1EF8 002:592 JLINK_WriteMem(0x20000180, 0x0400 Bytes, ...) -- Data:  D0 7B 00 20 01 9A 00 08 09 9A 00 08 0B 9A 00 08 ... -- CPU_WriteMem(1024 bytes @ 0x20000180)  returns 0x400 (0012ms, 0672ms total)
T1EF8 002:604 JLINK_WriteReg(R0, 0x08000000)  returns 0x00 (0000ms, 0672ms total)
T1EF8 002:604 JLINK_WriteReg(R1, 0x00000400)  returns 0x00 (0000ms, 0672ms total)
T1EF8 002:604 JLINK_WriteReg(R2, 0x20000180)  returns 0x00 (0000ms, 0672ms total)
T1EF8 002:604 JLINK_WriteReg(R3, 0x00000000)  returns 0x00 (0000ms, 0672ms total)
T1EF8 002:604 JLINK_WriteReg(R4, 0x00000000)  returns 0x00 (0000ms, 0672ms total)
T1EF8 002:604 JLINK_WriteReg(R5, 0x00000000)  returns 0x00 (0000ms, 0672ms total)
T1EF8 002:604 JLINK_WriteReg(R6, 0x00000000)  returns 0x00 (0000ms, 0672ms total)
T1EF8 002:604 JLINK_WriteReg(R7, 0x00000000)  returns 0x00 (0000ms, 0672ms total)
T1EF8 002:604 JLINK_WriteReg(R8, 0x00000000)  returns 0x00 (0000ms, 0672ms total)
T1EF8 002:604 JLINK_WriteReg(R9, 0x2000017C)  returns 0x00 (0000ms, 0672ms total)
T1EF8 002:604 JLINK_WriteReg(R10, 0x00000000)  returns 0x00 (0000ms, 0672ms total)
T1EF8 002:604 JLINK_WriteReg(R11, 0x00000000)  returns 0x00 (0000ms, 0672ms total)
T1EF8 002:604 JLINK_WriteReg(R12, 0x00000000)  returns 0x00 (0000ms, 0672ms total)
T1EF8 002:604 JLINK_WriteReg(R13 (SP), 0x20000800)  returns 0x00 (0000ms, 0672ms total)
T1EF8 002:604 JLINK_WriteReg(R14, 0x20000001)  returns 0x00 (0000ms, 0672ms total)
T1EF8 002:604 JLINK_WriteReg(R15 (PC), 0x20000108)  returns 0x00 (0000ms, 0672ms total)
T1EF8 002:604 JLINK_WriteReg(XPSR, 0x01000000)  returns 0x00 (0000ms, 0672ms total)
T1EF8 002:604 JLINK_WriteReg(MSP, 0x20000800)  returns 0x00 (0000ms, 0672ms total)
T1EF8 002:604 JLINK_WriteReg(PSP, 0x20000800)  returns 0x00 (0000ms, 0672ms total)
T1EF8 002:604 JLINK_WriteReg(CFBP, 0x00000000)  returns 0x00 (0000ms, 0672ms total)
T1EF8 002:604 JLINK_SetBPEx(Addr = 0x20000000, Type = 0xFFFFFFF2)  returns 0x0000000B (0000ms, 0672ms total)
T1EF8 002:604 JLINK_Go() (0002ms, 0674ms total)
T1EF8 002:606 JLINK_IsHalted()  returns FALSE (0001ms, 0675ms total)
T1EF8 002:837 JLINK_IsHalted() -- CPU_ReadMem(2 bytes @ 0x20000000)  returns TRUE (0004ms, 0678ms total)
T1EF8 002:841 JLINK_ReadReg(R15 (PC))  returns 0x20000000 (0000ms, 0674ms total)
T1EF8 002:841 JLINK_ClrBPEx(BPHandle = 0x0000000B)  returns 0x00 (0000ms, 0674ms total)
T1EF8 002:841 JLINK_ReadReg(R0)  returns 0x00000000 (0000ms, 0674ms total)
T1EF8 002:842 JLINK_WriteMem(0x20000180, 0x0400 Bytes, ...) -- Data:  10 B5 89 48 01 F0 11 FC 10 BD 10 B5 87 48 00 68 ... -- CPU_WriteMem(1024 bytes @ 0x20000180)  returns 0x400 (0011ms, 0685ms total)
T1EF8 002:853 JLINK_WriteReg(R0, 0x08000400)  returns 0x00 (0001ms, 0686ms total)
T1EF8 002:854 JLINK_WriteReg(R1, 0x00000400)  returns 0x00 (0000ms, 0686ms total)
T1EF8 002:854 JLINK_WriteReg(R2, 0x20000180)  returns 0x00 (0000ms, 0686ms total)
T1EF8 002:854 JLINK_WriteReg(R3, 0x00000000)  returns 0x00 (0000ms, 0686ms total)
T1EF8 002:854 JLINK_WriteReg(R4, 0x00000000)  returns 0x00 (0000ms, 0686ms total)
T1EF8 002:854 JLINK_WriteReg(R5, 0x00000000)  returns 0x00 (0000ms, 0686ms total)
T1EF8 002:854 JLINK_WriteReg(R6, 0x00000000)  returns 0x00 (0000ms, 0686ms total)
T1EF8 002:854 JLINK_WriteReg(R7, 0x00000000)  returns 0x00 (0000ms, 0686ms total)
T1EF8 002:854 JLINK_WriteReg(R8, 0x00000000)  returns 0x00 (0000ms, 0686ms total)
T1EF8 002:854 JLINK_WriteReg(R9, 0x2000017C)  returns 0x00 (0000ms, 0686ms total)
T1EF8 002:854 JLINK_WriteReg(R10, 0x00000000)  returns 0x00 (0000ms, 0686ms total)
T1EF8 002:854 JLINK_WriteReg(R11, 0x00000000)  returns 0x00 (0000ms, 0686ms total)
T1EF8 002:854 JLINK_WriteReg(R12, 0x00000000)  returns 0x00 (0000ms, 0686ms total)
T1EF8 002:854 JLINK_WriteReg(R13 (SP), 0x20000800)  returns 0x00 (0000ms, 0686ms total)
T1EF8 002:854 JLINK_WriteReg(R14, 0x20000001)  returns 0x00 (0000ms, 0686ms total)
T1EF8 002:854 JLINK_WriteReg(R15 (PC), 0x20000108)  returns 0x00 (0000ms, 0686ms total)
T1EF8 002:854 JLINK_WriteReg(XPSR, 0x01000000)  returns 0x00 (0000ms, 0686ms total)
T1EF8 002:854 JLINK_WriteReg(MSP, 0x20000800)  returns 0x00 (0000ms, 0686ms total)
T1EF8 002:854 JLINK_WriteReg(PSP, 0x20000800)  returns 0x00 (0000ms, 0686ms total)
T1EF8 002:854 JLINK_WriteReg(CFBP, 0x00000000)  returns 0x00 (0000ms, 0686ms total)
T1EF8 002:854 JLINK_SetBPEx(Addr = 0x20000000, Type = 0xFFFFFFF2)  returns 0x0000000C (0000ms, 0686ms total)
T1EF8 002:854 JLINK_Go() (0002ms, 0688ms total)
T1EF8 002:856 JLINK_IsHalted()  returns FALSE (0001ms, 0689ms total)
T1EF8 003:075 JLINK_IsHalted() -- CPU_ReadMem(2 bytes @ 0x20000000)  returns TRUE (0004ms, 0692ms total)
T1EF8 003:079 JLINK_ReadReg(R15 (PC))  returns 0x20000000 (0000ms, 0688ms total)
T1EF8 003:079 JLINK_ClrBPEx(BPHandle = 0x0000000C)  returns 0x00 (0000ms, 0688ms total)
T1EF8 003:079 JLINK_ReadReg(R0)  returns 0x00000000 (0000ms, 0688ms total)
T1EF8 003:080 JLINK_WriteMem(0x20000180, 0x0400 Bytes, ...) -- Data:  91 B2 3A 19 90 B2 01 F0 A8 FC 32 1B 91 B2 7A 19 ... -- CPU_WriteMem(1024 bytes @ 0x20000180)  returns 0x400 (0011ms, 0699ms total)
T1EF8 003:091 JLINK_WriteReg(R0, 0x08000800)  returns 0x00 (0001ms, 0700ms total)
T1EF8 003:092 JLINK_WriteReg(R1, 0x00000400)  returns 0x00 (0000ms, 0700ms total)
T1EF8 003:092 JLINK_WriteReg(R2, 0x20000180)  returns 0x00 (0000ms, 0700ms total)
T1EF8 003:092 JLINK_WriteReg(R3, 0x00000000)  returns 0x00 (0000ms, 0700ms total)
T1EF8 003:092 JLINK_WriteReg(R4, 0x00000000)  returns 0x00 (0000ms, 0700ms total)
T1EF8 003:092 JLINK_WriteReg(R5, 0x00000000)  returns 0x00 (0000ms, 0700ms total)
T1EF8 003:092 JLINK_WriteReg(R6, 0x00000000)  returns 0x00 (0000ms, 0700ms total)
T1EF8 003:092 JLINK_WriteReg(R7, 0x00000000)  returns 0x00 (0000ms, 0700ms total)
T1EF8 003:092 JLINK_WriteReg(R8, 0x00000000)  returns 0x00 (0000ms, 0700ms total)
T1EF8 003:092 JLINK_WriteReg(R9, 0x2000017C)  returns 0x00 (0000ms, 0700ms total)
T1EF8 003:092 JLINK_WriteReg(R10, 0x00000000)  returns 0x00 (0000ms, 0700ms total)
T1EF8 003:092 JLINK_WriteReg(R11, 0x00000000)  returns 0x00 (0000ms, 0700ms total)
T1EF8 003:092 JLINK_WriteReg(R12, 0x00000000)  returns 0x00 (0000ms, 0700ms total)
T1EF8 003:092 JLINK_WriteReg(R13 (SP), 0x20000800)  returns 0x00 (0000ms, 0700ms total)
T1EF8 003:092 JLINK_WriteReg(R14, 0x20000001)  returns 0x00 (0000ms, 0700ms total)
T1EF8 003:092 JLINK_WriteReg(R15 (PC), 0x20000108)  returns 0x00 (0000ms, 0700ms total)
T1EF8 003:092 JLINK_WriteReg(XPSR, 0x01000000)  returns 0x00 (0000ms, 0700ms total)
T1EF8 003:092 JLINK_WriteReg(MSP, 0x20000800)  returns 0x00 (0000ms, 0700ms total)
T1EF8 003:092 JLINK_WriteReg(PSP, 0x20000800)  returns 0x00 (0000ms, 0700ms total)
T1EF8 003:092 JLINK_WriteReg(CFBP, 0x00000000)  returns 0x00 (0000ms, 0700ms total)
T1EF8 003:092 JLINK_SetBPEx(Addr = 0x20000000, Type = 0xFFFFFFF2)  returns 0x0000000D (0000ms, 0700ms total)
T1EF8 003:092 JLINK_Go() (0002ms, 0702ms total)
T1EF8 003:094 JLINK_IsHalted()  returns FALSE (0001ms, 0703ms total)
T1EF8 003:216 JLINK_IsHalted() -- CPU_ReadMem(2 bytes @ 0x20000000)  returns TRUE (0004ms, 0706ms total)
T1EF8 003:220 JLINK_ReadReg(R15 (PC))  returns 0x20000000 (0000ms, 0702ms total)
T1EF8 003:220 JLINK_ClrBPEx(BPHandle = 0x0000000D)  returns 0x00 (0000ms, 0702ms total)
T1EF8 003:220 JLINK_ReadReg(R0)  returns 0x00000000 (0000ms, 0702ms total)
T1EF8 003:221 JLINK_WriteMem(0x20000180, 0x0400 Bytes, ...) -- Data:  02 98 40 1E 02 90 02 98 00 28 E1 DA 01 98 40 1C ... -- CPU_WriteMem(1024 bytes @ 0x20000180)  returns 0x400 (0011ms, 0713ms total)
T1EF8 003:232 JLINK_WriteReg(R0, 0x08000C00)  returns 0x00 (0000ms, 0713ms total)
T1EF8 003:232 JLINK_WriteReg(R1, 0x00000400)  returns 0x00 (0000ms, 0713ms total)
T1EF8 003:232 JLINK_WriteReg(R2, 0x20000180)  returns 0x00 (0000ms, 0713ms total)
T1EF8 003:232 JLINK_WriteReg(R3, 0x00000000)  returns 0x00 (0000ms, 0713ms total)
T1EF8 003:232 JLINK_WriteReg(R4, 0x00000000)  returns 0x00 (0000ms, 0713ms total)
T1EF8 003:232 JLINK_WriteReg(R5, 0x00000000)  returns 0x00 (0000ms, 0713ms total)
T1EF8 003:232 JLINK_WriteReg(R6, 0x00000000)  returns 0x00 (0000ms, 0713ms total)
T1EF8 003:232 JLINK_WriteReg(R7, 0x00000000)  returns 0x00 (0000ms, 0713ms total)
T1EF8 003:232 JLINK_WriteReg(R8, 0x00000000)  returns 0x00 (0000ms, 0713ms total)
T1EF8 003:232 JLINK_WriteReg(R9, 0x2000017C)  returns 0x00 (0000ms, 0713ms total)
T1EF8 003:232 JLINK_WriteReg(R10, 0x00000000)  returns 0x00 (0000ms, 0713ms total)
T1EF8 003:232 JLINK_WriteReg(R11, 0x00000000)  returns 0x00 (0000ms, 0713ms total)
T1EF8 003:232 JLINK_WriteReg(R12, 0x00000000)  returns 0x00 (0000ms, 0713ms total)
T1EF8 003:232 JLINK_WriteReg(R13 (SP), 0x20000800)  returns 0x00 (0000ms, 0713ms total)
T1EF8 003:232 JLINK_WriteReg(R14, 0x20000001)  returns 0x00 (0000ms, 0713ms total)
T1EF8 003:232 JLINK_WriteReg(R15 (PC), 0x20000108)  returns 0x00 (0000ms, 0713ms total)
T1EF8 003:232 JLINK_WriteReg(XPSR, 0x01000000)  returns 0x00 (0000ms, 0713ms total)
T1EF8 003:232 JLINK_WriteReg(MSP, 0x20000800)  returns 0x00 (0001ms, 0714ms total)
T1EF8 003:233 JLINK_WriteReg(PSP, 0x20000800)  returns 0x00 (0000ms, 0714ms total)
T1EF8 003:233 JLINK_WriteReg(CFBP, 0x00000000)  returns 0x00 (0000ms, 0714ms total)
T1EF8 003:233 JLINK_SetBPEx(Addr = 0x20000000, Type = 0xFFFFFFF2)  returns 0x0000000E (0000ms, 0714ms total)
T1EF8 003:233 JLINK_Go() (0002ms, 0716ms total)
T1EF8 003:235 JLINK_IsHalted()  returns FALSE (0000ms, 0716ms total)
T1EF8 003:237 JLINK_IsHalted()  returns FALSE (0000ms, 0716ms total)
T1EF8 003:276 JLINK_IsHalted() -- CPU_ReadMem(2 bytes @ 0x20000000)  returns TRUE (0004ms, 0720ms total)
T1EF8 003:280 JLINK_ReadReg(R15 (PC))  returns 0x20000000 (0000ms, 0716ms total)
T1EF8 003:280 JLINK_ClrBPEx(BPHandle = 0x0000000E)  returns 0x00 (0000ms, 0716ms total)
T1EF8 003:280 JLINK_ReadReg(R0)  returns 0x00000000 (0000ms, 0716ms total)
T1EF8 003:281 JLINK_WriteMem(0x20000180, 0x0400 Bytes, ...) -- Data:  D3 4C A4 88 D2 4D ED 68 04 EB 55 04 A3 B2 D0 4C ... -- CPU_WriteMem(1024 bytes @ 0x20000180)  returns 0x400 (0011ms, 0727ms total)
T1EF8 003:292 JLINK_WriteReg(R0, 0x08001000)  returns 0x00 (0001ms, 0728ms total)
T1EF8 003:293 JLINK_WriteReg(R1, 0x00000400)  returns 0x00 (0000ms, 0728ms total)
T1EF8 003:293 JLINK_WriteReg(R2, 0x20000180)  returns 0x00 (0000ms, 0728ms total)
T1EF8 003:293 JLINK_WriteReg(R3, 0x00000000)  returns 0x00 (0000ms, 0728ms total)
T1EF8 003:293 JLINK_WriteReg(R4, 0x00000000)  returns 0x00 (0000ms, 0728ms total)
T1EF8 003:293 JLINK_WriteReg(R5, 0x00000000)  returns 0x00 (0000ms, 0728ms total)
T1EF8 003:293 JLINK_WriteReg(R6, 0x00000000)  returns 0x00 (0000ms, 0728ms total)
T1EF8 003:293 JLINK_WriteReg(R7, 0x00000000)  returns 0x00 (0000ms, 0728ms total)
T1EF8 003:293 JLINK_WriteReg(R8, 0x00000000)  returns 0x00 (0000ms, 0728ms total)
T1EF8 003:293 JLINK_WriteReg(R9, 0x2000017C)  returns 0x00 (0000ms, 0728ms total)
T1EF8 003:293 JLINK_WriteReg(R10, 0x00000000)  returns 0x00 (0000ms, 0728ms total)
T1EF8 003:293 JLINK_WriteReg(R11, 0x00000000)  returns 0x00 (0000ms, 0728ms total)
T1EF8 003:293 JLINK_WriteReg(R12, 0x00000000)  returns 0x00 (0000ms, 0728ms total)
T1EF8 003:293 JLINK_WriteReg(R13 (SP), 0x20000800)  returns 0x00 (0000ms, 0728ms total)
T1EF8 003:293 JLINK_WriteReg(R14, 0x20000001)  returns 0x00 (0000ms, 0728ms total)
T1EF8 003:293 JLINK_WriteReg(R15 (PC), 0x20000108)  returns 0x00 (0000ms, 0728ms total)
T1EF8 003:293 JLINK_WriteReg(XPSR, 0x01000000)  returns 0x00 (0000ms, 0728ms total)
T1EF8 003:293 JLINK_WriteReg(MSP, 0x20000800)  returns 0x00 (0001ms, 0729ms total)
T1EF8 003:294 JLINK_WriteReg(PSP, 0x20000800)  returns 0x00 (0000ms, 0729ms total)
T1EF8 003:294 JLINK_WriteReg(CFBP, 0x00000000)  returns 0x00 (0000ms, 0729ms total)
T1EF8 003:294 JLINK_SetBPEx(Addr = 0x20000000, Type = 0xFFFFFFF2)  returns 0x0000000F (0000ms, 0729ms total)
T1EF8 003:294 JLINK_Go() (0002ms, 0731ms total)
T1EF8 003:296 JLINK_IsHalted()  returns FALSE (0000ms, 0731ms total)
T1EF8 003:328 JLINK_IsHalted() -- CPU_ReadMem(2 bytes @ 0x20000000)  returns TRUE (0004ms, 0735ms total)
T1EF8 003:332 JLINK_ReadReg(R15 (PC))  returns 0x20000000 (0000ms, 0731ms total)
T1EF8 003:332 JLINK_ClrBPEx(BPHandle = 0x0000000F)  returns 0x00 (0000ms, 0731ms total)
T1EF8 003:332 JLINK_ReadReg(R0)  returns 0x00000000 (0000ms, 0731ms total)
T1EF8 003:333 JLINK_WriteMem(0x20000180, 0x0400 Bytes, ...) -- Data:  08 60 10 E0 56 48 00 68 56 49 09 68 40 1A 10 F1 ... -- CPU_WriteMem(1024 bytes @ 0x20000180)  returns 0x400 (0011ms, 0742ms total)
T1EF8 003:344 JLINK_WriteReg(R0, 0x08001400)  returns 0x00 (0000ms, 0742ms total)
T1EF8 003:344 JLINK_WriteReg(R1, 0x00000400)  returns 0x00 (0000ms, 0742ms total)
T1EF8 003:344 JLINK_WriteReg(R2, 0x20000180)  returns 0x00 (0000ms, 0742ms total)
T1EF8 003:344 JLINK_WriteReg(R3, 0x00000000)  returns 0x00 (0000ms, 0742ms total)
T1EF8 003:344 JLINK_WriteReg(R4, 0x00000000)  returns 0x00 (0000ms, 0742ms total)
T1EF8 003:344 JLINK_WriteReg(R5, 0x00000000)  returns 0x00 (0000ms, 0742ms total)
T1EF8 003:344 JLINK_WriteReg(R6, 0x00000000)  returns 0x00 (0000ms, 0742ms total)
T1EF8 003:344 JLINK_WriteReg(R7, 0x00000000)  returns 0x00 (0000ms, 0742ms total)
T1EF8 003:344 JLINK_WriteReg(R8, 0x00000000)  returns 0x00 (0000ms, 0742ms total)
T1EF8 003:344 JLINK_WriteReg(R9, 0x2000017C)  returns 0x00 (0000ms, 0742ms total)
T1EF8 003:344 JLINK_WriteReg(R10, 0x00000000)  returns 0x00 (0000ms, 0742ms total)
T1EF8 003:344 JLINK_WriteReg(R11, 0x00000000)  returns 0x00 (0000ms, 0742ms total)
T1EF8 003:344 JLINK_WriteReg(R12, 0x00000000)  returns 0x00 (0000ms, 0742ms total)
T1EF8 003:344 JLINK_WriteReg(R13 (SP), 0x20000800)  returns 0x00 (0000ms, 0742ms total)
T1EF8 003:344 JLINK_WriteReg(R14, 0x20000001)  returns 0x00 (0000ms, 0742ms total)
T1EF8 003:344 JLINK_WriteReg(R15 (PC), 0x20000108)  returns 0x00 (0001ms, 0743ms total)
T1EF8 003:345 JLINK_WriteReg(XPSR, 0x01000000)  returns 0x00 (0000ms, 0743ms total)
T1EF8 003:345 JLINK_WriteReg(MSP, 0x20000800)  returns 0x00 (0000ms, 0743ms total)
T1EF8 003:345 JLINK_WriteReg(PSP, 0x20000800)  returns 0x00 (0000ms, 0743ms total)
T1EF8 003:345 JLINK_WriteReg(CFBP, 0x00000000)  returns 0x00 (0000ms, 0743ms total)
T1EF8 003:345 JLINK_SetBPEx(Addr = 0x20000000, Type = 0xFFFFFFF2)  returns 0x00000010 (0000ms, 0743ms total)
T1EF8 003:345 JLINK_Go() (0002ms, 0745ms total)
T1EF8 003:347 JLINK_IsHalted()  returns FALSE (0000ms, 0745ms total)
T1EF8 003:382 JLINK_IsHalted() -- CPU_ReadMem(2 bytes @ 0x20000000)  returns TRUE (0004ms, 0749ms total)
T1EF8 003:386 JLINK_ReadReg(R15 (PC))  returns 0x20000000 (0000ms, 0745ms total)
T1EF8 003:386 JLINK_ClrBPEx(BPHandle = 0x00000010)  returns 0x00 (0000ms, 0745ms total)
T1EF8 003:386 JLINK_ReadReg(R0)  returns 0x00000000 (0000ms, 0745ms total)
T1EF8 003:387 JLINK_WriteMem(0x20000180, 0x0400 Bytes, ...) -- Data:  E5 FC 00 BF 40 21 65 48 05 F0 F3 FF 00 28 F9 D0 ... -- CPU_WriteMem(1024 bytes @ 0x20000180)  returns 0x400 (0012ms, 0757ms total)
T1EF8 003:399 JLINK_WriteReg(R0, 0x08001800)  returns 0x00 (0000ms, 0757ms total)
T1EF8 003:399 JLINK_WriteReg(R1, 0x00000400)  returns 0x00 (0000ms, 0757ms total)
T1EF8 003:399 JLINK_WriteReg(R2, 0x20000180)  returns 0x00 (0000ms, 0757ms total)
T1EF8 003:399 JLINK_WriteReg(R3, 0x00000000)  returns 0x00 (0000ms, 0757ms total)
T1EF8 003:399 JLINK_WriteReg(R4, 0x00000000)  returns 0x00 (0000ms, 0757ms total)
T1EF8 003:399 JLINK_WriteReg(R5, 0x00000000)  returns 0x00 (0000ms, 0757ms total)
T1EF8 003:399 JLINK_WriteReg(R6, 0x00000000)  returns 0x00 (0000ms, 0757ms total)
T1EF8 003:399 JLINK_WriteReg(R7, 0x00000000)  returns 0x00 (0000ms, 0757ms total)
T1EF8 003:399 JLINK_WriteReg(R8, 0x00000000)  returns 0x00 (0000ms, 0757ms total)
T1EF8 003:399 JLINK_WriteReg(R9, 0x2000017C)  returns 0x00 (0000ms, 0757ms total)
T1EF8 003:399 JLINK_WriteReg(R10, 0x00000000)  returns 0x00 (0000ms, 0757ms total)
T1EF8 003:399 JLINK_WriteReg(R11, 0x00000000)  returns 0x00 (0000ms, 0757ms total)
T1EF8 003:399 JLINK_WriteReg(R12, 0x00000000)  returns 0x00 (0000ms, 0757ms total)
T1EF8 003:399 JLINK_WriteReg(R13 (SP), 0x20000800)  returns 0x00 (0000ms, 0757ms total)
T1EF8 003:399 JLINK_WriteReg(R14, 0x20000001)  returns 0x00 (0000ms, 0757ms total)
T1EF8 003:399 JLINK_WriteReg(R15 (PC), 0x20000108)  returns 0x00 (0000ms, 0757ms total)
T1EF8 003:399 JLINK_WriteReg(XPSR, 0x01000000)  returns 0x00 (0000ms, 0757ms total)
T1EF8 003:399 JLINK_WriteReg(MSP, 0x20000800)  returns 0x00 (0000ms, 0757ms total)
T1EF8 003:399 JLINK_WriteReg(PSP, 0x20000800)  returns 0x00 (0000ms, 0757ms total)
T1EF8 003:399 JLINK_WriteReg(CFBP, 0x00000000)  returns 0x00 (0000ms, 0757ms total)
T1EF8 003:399 JLINK_SetBPEx(Addr = 0x20000000, Type = 0xFFFFFFF2)  returns 0x00000011 (0000ms, 0757ms total)
T1EF8 003:399 JLINK_Go() (0002ms, 0759ms total)
T1EF8 003:401 JLINK_IsHalted()  returns FALSE (0001ms, 0760ms total)
T1EF8 003:434 JLINK_IsHalted() -- CPU_ReadMem(2 bytes @ 0x20000000)  returns TRUE (0004ms, 0763ms total)
T1EF8 003:438 JLINK_ReadReg(R15 (PC))  returns 0x20000000 (0000ms, 0759ms total)
T1EF8 003:438 JLINK_ClrBPEx(BPHandle = 0x00000011)  returns 0x00 (0000ms, 0759ms total)
T1EF8 003:438 JLINK_ReadReg(R0)  returns 0x00000000 (0000ms, 0759ms total)
T1EF8 003:439 JLINK_WriteMem(0x20000180, 0x0400 Bytes, ...) -- Data:  03 E0 0B 98 40 1C 0B 90 00 BF 06 E0 0B 98 10 F8 ... -- CPU_WriteMem(1024 bytes @ 0x20000180)  returns 0x400 (0011ms, 0770ms total)
T1EF8 003:450 JLINK_WriteReg(R0, 0x08001C00)  returns 0x00 (0000ms, 0770ms total)
T1EF8 003:450 JLINK_WriteReg(R1, 0x00000400)  returns 0x00 (0000ms, 0770ms total)
T1EF8 003:450 JLINK_WriteReg(R2, 0x20000180)  returns 0x00 (0000ms, 0770ms total)
T1EF8 003:450 JLINK_WriteReg(R3, 0x00000000)  returns 0x00 (0000ms, 0770ms total)
T1EF8 003:450 JLINK_WriteReg(R4, 0x00000000)  returns 0x00 (0000ms, 0770ms total)
T1EF8 003:450 JLINK_WriteReg(R5, 0x00000000)  returns 0x00 (0000ms, 0770ms total)
T1EF8 003:450 JLINK_WriteReg(R6, 0x00000000)  returns 0x00 (0000ms, 0770ms total)
T1EF8 003:450 JLINK_WriteReg(R7, 0x00000000)  returns 0x00 (0000ms, 0770ms total)
T1EF8 003:450 JLINK_WriteReg(R8, 0x00000000)  returns 0x00 (0000ms, 0770ms total)
T1EF8 003:450 JLINK_WriteReg(R9, 0x2000017C)  returns 0x00 (0000ms, 0770ms total)
T1EF8 003:450 JLINK_WriteReg(R10, 0x00000000)  returns 0x00 (0000ms, 0770ms total)
T1EF8 003:450 JLINK_WriteReg(R11, 0x00000000)  returns 0x00 (0000ms, 0770ms total)
T1EF8 003:450 JLINK_WriteReg(R12, 0x00000000)  returns 0x00 (0000ms, 0770ms total)
T1EF8 003:450 JLINK_WriteReg(R13 (SP), 0x20000800)  returns 0x00 (0000ms, 0770ms total)
T1EF8 003:450 JLINK_WriteReg(R14, 0x20000001)  returns 0x00 (0000ms, 0770ms total)
T1EF8 003:450 JLINK_WriteReg(R15 (PC), 0x20000108)  returns 0x00 (0000ms, 0770ms total)
T1EF8 003:450 JLINK_WriteReg(XPSR, 0x01000000)  returns 0x00 (0000ms, 0770ms total)
T1EF8 003:450 JLINK_WriteReg(MSP, 0x20000800)  returns 0x00 (0000ms, 0770ms total)
T1EF8 003:450 JLINK_WriteReg(PSP, 0x20000800)  returns 0x00 (0000ms, 0770ms total)
T1EF8 003:450 JLINK_WriteReg(CFBP, 0x00000000)  returns 0x00 (0000ms, 0770ms total)
T1EF8 003:450 JLINK_SetBPEx(Addr = 0x20000000, Type = 0xFFFFFFF2)  returns 0x00000012 (0000ms, 0770ms total)
T1EF8 003:450 JLINK_Go() (0003ms, 0773ms total)
T1EF8 003:453 JLINK_IsHalted()  returns FALSE (0000ms, 0773ms total)
T1EF8 003:485 JLINK_IsHalted() -- CPU_ReadMem(2 bytes @ 0x20000000)  returns TRUE (0004ms, 0777ms total)
T1EF8 003:489 JLINK_ReadReg(R15 (PC))  returns 0x20000000 (0000ms, 0773ms total)
T1EF8 003:489 JLINK_ClrBPEx(BPHandle = 0x00000012)  returns 0x00 (0000ms, 0773ms total)
T1EF8 003:489 JLINK_ReadReg(R0)  returns 0x00000000 (0000ms, 0773ms total)
T1EF8 003:490 JLINK_WriteMem(0x20000180, 0x0400 Bytes, ...) -- Data:  04 EB 84 04 E5 4D 05 EB C4 05 44 1E 2C 57 78 34 ... -- CPU_WriteMem(1024 bytes @ 0x20000180)  returns 0x400 (0011ms, 0784ms total)
T1EF8 003:501 JLINK_WriteReg(R0, 0x08002000)  returns 0x00 (0000ms, 0784ms total)
T1EF8 003:501 JLINK_WriteReg(R1, 0x00000400)  returns 0x00 (0000ms, 0784ms total)
T1EF8 003:501 JLINK_WriteReg(R2, 0x20000180)  returns 0x00 (0000ms, 0784ms total)
T1EF8 003:501 JLINK_WriteReg(R3, 0x00000000)  returns 0x00 (0000ms, 0784ms total)
T1EF8 003:501 JLINK_WriteReg(R4, 0x00000000)  returns 0x00 (0000ms, 0784ms total)
T1EF8 003:501 JLINK_WriteReg(R5, 0x00000000)  returns 0x00 (0000ms, 0784ms total)
